Using: /usr/bin/time -p /proj/cad/synopsys/synopsys-2010.lnx86_64/hspice/hspice/linux/hspice64 ddccTest.sp
 ****** HSPICE -- D-2010.03-SP1 64-BIT (May 27 2010) linux ******               
  Copyright (C) 2010 Synopsys, Inc. All Rights Reserved.                        
  Unpublished-rights reserved under US copyright laws.
  This program is protected by law and is subject to the 
  terms and conditions of the license agreement from Synopsys.
  Use of this program is your acceptance to be bound by the 
  license agreement. HSPICE is the trademark of Synopsys, Inc.
  Input File: ddccTest.sp                                                       
 lic:  
 lic: FLEXlm: v8.5b 
 lic: USER:   mxj150530            HOSTNAME: txace3.utdallas.edu 
 lic: HOSTID:                      PID:      53657 
 lic: Using FLEXlm license file: 
 lic: 1700@dmv 
 lic: Checkout 1 hspice 
 lic: License/Maintenance for hspice will expire on 30-jun-2017/2016.06 
 lic: FLOATING license(s) on SERVER dmv 
 lic:   
 Init: read install configuration file: /proj/cad/synopsys/synopsys-2010.lnx86_64/hspice/hspice/meta.cfg
  **warning** (/home/cad/kits/IBM_CMRF8SF-LM013/IBM_PDK/cmrf8sf/V1.2.0.0LM/HSPICE/models/model013.lib_inc:4) Model pfet device geometries will not be checked against the limits set by lmin, lmax, wmin and wmax. To enable this check, add a period(.) to the model name(i.e. enable model selector).
1****** HSPICE -- D-2010.03-SP1 64-BIT (May 27 2010) linux ******               
 ******  
 *ddcctest.sp

  ******  circuit name directory
 circuit number to circuit name directory
   number circuitname                     definition         multiplier
        0 main circuit
        1 x1.                             chen               1.00 
1****** HSPICE -- D-2010.03-SP1 64-BIT (May 27 2010) linux ******               
 ******  
 *ddcctest.sp

  ******  mos   model parameters tnom=  25.000 temp=  25.000 *****
 ***************************************************************************
 ***        model parameters  model name:   0:pfet     model type:pmos   ***
 ***************************************************************************

   *** general parameters ***
    deriv=   0.           

   ***  level 49  model parameters  ***

      hspver=    2006.03               level=         49         
     version=        3.2            paramchk=          0         
      apwarn=          1                lite=          0         
      vgslim=          0             binUnit=          1         
      capMod=          2               xpart=          0         
      mobMod=          1              nqsMod=          0         
      stiMod=          0                 elm=          5         
    sfvtflag=          0                 tox=   3.35e-09 meter   
          xj=      6e-08 meter       binflag=          0         
        lmin=      1e-07 meter          lmax=      1e-05 meter   
        wmin=    1.4e-07 meter          wmax=     0.0001 meter   
        lref=          0 meter          wref=          0 meter   
        lint=    1.4e-08 meter          wint=      2e-08 meter   
       lmult=          1               wmult=          1         
          ll=          0                 lln=          1         
          lw=          0                 lwn=          0         
         lwl=          0                  wl=          0         
         wln=          1                  ww=          0         
         wwn=          0                 wwl=          0         
         dwg=-1.31121e-08 m/V             dwb=8.41247e-09 m/V^1/2 
          xl=          0                  xw=          0         
          a0=    1.92433                 ags=   0.232587 V^-1    
          b0=1.14814e-07 meter            b1= 9.0213e-07 meter   
        keta= -0.0228077 V^-1           voff=  -0.126311 V       
       ngate=          0 cm^-3           vbx=          0 V       
         vbm=         -3 V                xt=   1.55e-07 meter   
        vth0=  -0.221798 V               nch=      1e+18 cm^-3   
        nsub=      6e+16 cm^-3           nlx=    9.8e-08 meter   
      gamma1=          0 V^-1/2       gamma2=          0 V^-1/2  
          k1=   0.262208 V^1/2            k2=  0.0326484         
          k3=       -5.6                 k3b=    1.21968 V^-1    
          w0=8.00627e-08 meter          dvt0=    71.3288         
        dvt1=    2.89404                dvt2=  0.0738178 V^-1    
       dvt0w=  -0.190374 meter^-1      dvt1w=     406793 meter^-1
       dvt2w=  -0.179801 V^-1           dsub=    2.04778         
        eta0=    3.63314                etab= -0.0255249 V^-1    
          u0=    96.7765 cm^2/V/sec         ua=5.22158e-10 m/V     
          ub=5.06962e-19 (m/V)^2          uc=-2.31355e-11 V^-1    
        vsat=     120000 m/sec            a1=          0 v^-1    
          a2=          1               delta=  0.0243625 V       
        rdsw=    469.418 ohm-um         prwg=       -0.1 V^-1    
        prwb=  0.0352849 V^-1/2           wr=          1         
        pclm=        1.8             pdiblc1=      1e-05         
     pdiblc2=      0.075             pdiblcb=0.000247785 V^-1    
      pscbe1=8.48598e+08 V/m          pscbe2=7.71574e-10 V/m     
       drout=     1.2481                pvag=  -0.197983         
     nfactor=    0.10741                cdsc=   0.141753 f/m^2   
       cdscb=     -0.001 f/V/m^2       cdscd=  0.0295841 f/V/m^2 
         cit=          0 f/m^2        alpha0=   5.43e-09 m/V     
       beta0=    12.8657 V               dlc=  3.339e-08 meter   
         dwc=    1.5e-08 meter           clc=      1e-07 meter   
         cle=        0.6                cgso=    1.5e-11 f/m     
        cgdo=    1.5e-11 f/m            cgbo=          0 f/m     
        cgsl=    3.2e-10 f/m            cgdl=    3.2e-10 f/m     
      ckappa=      6.829                  cf=          0 f/m     
        acde=          1 m/V            moin=         15 V^1/2   
        toxm=   3.35e-09 m            dtoxcv=          0 m       
         vfb=    -1.0322 V            alpha1=          0 1/V     
        ijth=        0.1 A              noff=          1         
      voffcv=          0                 tcj=    0.00117 1/K     
       tcjsw=   0.001901 1/K          tcjswg=   0.000637 1/K     
         tpb=  -0.001573 V/K           tpbsw=          0 V/K     
      tpbswg=  -0.003851 V/K             llc=          0         
         lwc=          0                lwlc=          0         
         wlc=          0                 wwc=          0         
        wwlc=          0                tnom=     298.15 K       
         kt1=    -0.2818 V              kt1l=1.90606e-09         
         kt2=  -0.066803                 ute=       -1.2         
         ua1= 5.8329e-12 m/V             ub1=-1.0585e-18 (m/V)^2 
         uc1=          0 m/V^2            at=      20000 m/s     
         prt=        -10         
         using Berkeley noise model       noiMod=          3         
        noia=      1e+19                noib=     155574         
        noic=-2.0907e-12                  em=    4.1e+07         
          ef=      1.066                  af=          1         
          kf=          0              gdsnoi=-1.23457e-29         
         using Berkeley diodes          not using ACM  
         acm=        13                 hdif=         0 meter    
        ldif=         0 meter             js=     6e-08 amp/m^2  
         jsw=  2.06e-14 amp/m            xti=         3          
          nj=         1                   cj=   0.00105 f/m^2    
          mj=     0.405                   pb=    0.6943 V        
        cjsw=   1.1e-10 f/m             mjsw=    0.2545          
         php (not used)                  pbsw=       0.1 V        
      cjgate (not used)                 cjswg=   3.5e-10 f/m      
       mjswg=    0.8606                pbswg=     2.064 V        
         la0=-0.000794786                lags=  0.0950425         
       lketa= 0.00207043               lvth0= -0.0020661         
         lk1=  0.0088553                 lk2=0.000182368         
         lu0=   0.113543               lvsat=    -1186.5         
       lrdsw=   -10.8631              ldelta= 0.00146134         
       lpclm= -0.0707733            lpdiblc1= 0.00691228         
    lpdiblc2=-0.00095254            lnfactor=    0.10085         
       wvth0=      0.002                 wk1=   0.015401         
         wk2=-0.00590394                 wu0=   -2.36676         
       wvsat=    -1983.7            ppdiblc2=      1e-30         
 ***************************************************************************
 ***        model parameters  model name:   0:nfet     model type:nmos   ***
 ***************************************************************************

   *** general parameters ***
    deriv=   0.           

   ***  level 49  model parameters  ***

      hspver=    2006.03               level=         49         
     version=        3.2            paramchk=          0         
      apwarn=          1                lite=          0         
      vgslim=          0             binUnit=          1         
      capMod=          2               xpart=          0         
      mobMod=          1              nqsMod=          0         
      stiMod=          0                 elm=          5         
    sfvtflag=          0                 tox=   3.12e-09 meter   
          xj=      6e-08 meter       binflag=          0         
        lmin=      9e-08 meter          lmax=      1e-05 meter   
        wmin=    1.4e-07 meter          wmax=     0.0001 meter   
        lref=          0 meter          wref=          0 meter   
        lint=    1.4e-08 meter          wint=      5e-09 meter   
       lmult=          1               wmult=          1         
          ll=          0                 lln=          1         
          lw=          0                 lwn=          1         
         lwl=          0                  wl=          0         
         wln=          1                  ww=          0         
         wwn=          1                 wwl=          0         
         dwg= 3.1504e-09 m/V             dwb=-6.87514e-10 m/V^1/2 
          xl=          0                  xw=          0         
          a0=    2.07088                 ags=   0.816031 V^-1    
          b0=-3.19009e-08 meter            b1=4.06231e-07 meter   
        keta=  0.0116023 V^-1           voff=     -0.126 V       
       ngate=          0 cm^-3           vbx=          0 V       
         vbm=         -3 V                xt=   1.55e-07 meter   
        vth0=   0.185675 V               nch=6.15419e+17 cm^-3   
        nsub=      6e+16 cm^-3           nlx=   1.94e-07 meter   
      gamma1=          0 V^-1/2       gamma2=          0 V^-1/2  
          k1=   0.416451 V^1/2            k2= -0.0640539         
          k3=   -1.55781                 k3b=    5.69696 V^-1    
          w0= 1.2324e-06 meter          dvt0=    37.3239         
        dvt1=    2.73683                dvt2=  0.0105468 V^-1    
       dvt0w=   0.309771 meter^-1      dvt1w=1.69875e+06 meter^-1
       dvt2w=   0.128223 V^-1           dsub=    1.73647         
        eta0=    1.05952                etab=  -0.176282 V^-1    
          u0=    602.886 cm^2/V/sec         ua=1.06378e-09 m/V     
          ub=1.71316e-18 (m/V)^2          uc=1.71597e-10 V^-1    
        vsat=     123952 m/sec            a1= 0.00164278 v^-1    
          a2=          1               delta=  0.0188523 V       
        rdsw=    108.555 ohm-um         prwg=       -0.1 V^-1    
        prwb=  0.0439962 V^-1/2           wr=          1         
        pclm=   0.745881             pdiblc1=   0.509841         
     pdiblc2=  0.0710908             pdiblcb=0.000529334 V^-1    
      pscbe1=6.81667e+08 V/m          pscbe2=3.90387e-06 V/m     
       drout=    1.89094                pvag=   0.306605         
     nfactor=    1.58134                cdsc=  0.0847676 f/m^2   
       cdscb=-0.00060441 f/V/m^2       cdscd=  0.0105193 f/V/m^2 
         cit=          0 f/m^2        alpha0=   1.35e-08 m/V     
       beta0=       9.65 V               dlc=  3.447e-08 meter   
         dwc=    1.7e-09 meter           clc=      1e-07 meter   
         cle=        0.6                cgso=          0 f/m     
        cgdo=          0 f/m            cgbo=          0 f/m     
        cgsl=    3.3e-10 f/m            cgdl=    3.3e-10 f/m     
      ckappa=     16.487                  cf=          0 f/m     
        acde=          1 m/V            moin=         15 V^1/2   
        toxm=   3.12e-09 m            dtoxcv=          0 m       
         vfb=    -1.0637 V            alpha1=          0 1/V     
        ijth=        0.1 A              noff=          1         
      voffcv=          0                 tcj=    0.00105 1/K     
       tcjsw=    0.00169 1/K          tcjswg=   0.000653 1/K     
         tpb=   -0.00192 V/K           tpbsw=  -0.000723 V/K     
      tpbswg=   -0.00166 V/K             llc=          0         
         lwc=          0                lwlc=          0         
         wlc=          0                 wwc=          0         
        wwlc=          0                tnom=     298.15 K       
         kt1=  -0.212278 V              kt1l=-3.02832e-10         
         kt2= -0.0163997                 ute=      -1.42         
         ua1=      3e-09 m/V             ub1=-3.99369e-18 (m/V)^2 
         uc1=-2.01002e-10 m/V^2            at=    53670.2 m/s     
         prt=       -100         
         using Berkeley noise model       noiMod=          3         
        noia=      1e+19                noib=     205574         
        noic=-3.5555e-12                  em=    4.1e+07         
          ef=     0.9387                  af=          1         
          kf=          0              gdsnoi=-1.23457e-29         
         using Berkeley diodes          not using ACM  
         acm=        13                 hdif=         0 meter    
        ldif=         0 meter             js=  1.35e-07 amp/m^2  
         jsw=  8.07e-14 amp/m            xti=         3          
          nj=         1                   cj=   0.00105 f/m^2    
          mj=    0.3647                   pb=    0.7341 V        
        cjsw=   1.1e-10 f/m             mjsw=     1.052          
         php (not used)                  pbsw=    0.6662 V        
      cjgate (not used)                 cjswg=   3.5e-10 f/m      
       mjswg=     0.732                pbswg=     1.409 V        
         la0= -0.0568704                lags= 0.00731324         
       lketa=-0.000913731               lvth0=-5.59084e-06         
         lk1=-0.00481984                 lk2= 0.00856242         
         lu0=   -2.01176               lvsat=   -1043.21         
       lrdsw=    -5.6167              ldelta= 0.00102839         
       lpclm=0.000996166            lpdiblc1=-0.00866747         
    lpdiblc2=-0.00213395            lnfactor=  0.0239805         
         wk1=-0.00100034                 wk2= 0.00774723         
         wu0=         10               wvsat=    2379.18         
 

 **warning** Element identification problem 
   with output     0:y1               ;ignored.
 **warning** Element identification problem 
   with output     0:y2               ;ignored.
 **warning** Element identification problem 
   with output     0:y3               ;ignored.
 
      
 *****************************************************************
 ******  option summary
 ******
 runlvl  = 5         bypass  = 2         

 **warning** zero value is used for the non-existance
             output variable in the expression.
             you may have output variables with
             a long path name.
1****** HSPICE -- D-2010.03-SP1 64-BIT (May 27 2010) linux ******               
 ******  
 *ddcctest.sp

  ******  operating point information tnom=  25.000 temp=  70.000 *****
 ***** operating point status is all       simulation time is     0.     
    node    =voltage      node    =voltage      node    =voltage

 +0:vb1     =-100.0000m 0:vb2     =-380.0000m 0:vdd     = 900.0000m
 +0:vss     =-900.0000m 0:x       =-723.2659u 0:y1      =   0.     
 +0:y2      =   0.      0:y3      =   0.      1:net1    = 397.6308m
 +1:net10   =-683.5604m 1:net11   =-683.6544m 1:net12   =-644.3436m
 +1:net2    = 391.2111m 1:net3    = 426.2539m 1:net6    =-180.7159m
 +1:net7    =-181.1737m 1:net8    =-530.4613m 1:net9    =-530.7503m


 ****  voltage sources

 subckt                                                                    
 element  0:vdd      0:vss      0:vy1      0:vy2      0:vy3      0:vb1     
  volts    900.0000m -900.0000m    0.         0.         0.      -100.0000m
  current -284.6188m  284.6188m    0.         0.         0.         0.     
  power    256.1569m  256.1569m    0.         0.         0.         0.     

 subckt             
 element  0:vb2     
  volts   -380.0000m
  current    0.     
  power      0.     

     total voltage source power dissipation=  512.3138m       watts



 **** resistors

 subckt                                   
 element  0:r1       0:r2       0:r3      
  r value   10.0000k   10.0000k   10.0000k
  v drop     0.         0.         0.     
  current    0.         0.         0.     
  power      0.         0.         0.     



 **** mosfets


 subckt   x1         x1         x1         x1         x1         x1        
 element  1:m1       1:m2       1:m3       1:m4       1:m5       1:m6      
 model    0:nfet     0:nfet     0:nfet     0:nfet     0:nfet     0:nfet    
 region     Saturati   Saturati   Saturati   Saturati   Saturati   Saturati
  id        46.7869m   46.7952m   46.6497m   46.9209m   93.4449m   93.7078m
  ibs     -425.3560f -425.3560f -425.3560f -425.3560f -850.5697f -850.5697f
  ibd     -425.3585f -425.3585f -425.3585f -425.3585f -992.8147f -948.9343f
  vgs      530.4613m  530.4613m  530.0270m  530.7503m  571.9270m  572.3848m
  vds      349.2876m  349.7454m  350.0344m  349.5766m  578.3468m  572.3848m
  vbs     -369.5387m -369.5387m -369.2497m -369.2497m -719.2841m -718.8263m
  vth      348.4547m  348.4547m  348.4113m  348.4113m  397.2684m  397.2091m
  vdsat    177.5615m  177.5615m  177.2990m  177.7771m  176.7972m  177.1396m
  vod      182.0066m  182.0066m  181.6158m  182.3390m  174.6586m  175.1757m
  beta       2.8172     2.8172     2.8177     2.8168     5.4643     5.4633 
  gam eff  457.1039m  457.1039m  457.0970m  457.0970m  464.9926m  464.9829m
  gm       386.1465m  386.2203m  385.7103m  386.6739m  787.9797m  788.6199m
  gds       17.9505m   17.9222m   17.8418m   17.9863m   24.4405m   24.5910m
  gmb       58.9687m   58.9799m   58.9042m   59.0604m  105.3362m  105.4435m
  cdtot      3.2722p    3.2718p    3.2718p    3.2722p    5.8486p    5.8551p
  cgtot      4.4243p    4.4242p    4.4240p    4.4245p    8.7882p    8.7895p
  cstot      5.3241p    5.3241p    5.3242p    5.3245p    9.9726p    9.9738p
  cbtot      6.1995p    6.1992p    6.1996p    6.1999p   10.9924p   10.9991p
  cgs        3.6321p    3.6321p    3.6319p    3.6324p    7.2410p    7.2419p
  cgd      606.2501f  606.2156f  606.1642f  606.2527f    1.1942p    1.1948p



 subckt   x1         x1         x1         x1         x1         x1        
 element  1:m7       1:m8       1:m9       1:m12      1:m15      1:m16     
 model    0:pfet     0:pfet     0:pfet     0:pfet     0:nfet     0:nfet    
 region     Saturati   Saturati   Saturati   Saturati     Linear     Linear
  id       -93.4449m  -93.7078m  -97.4661m  -97.4661m   93.5821m   93.5706m
  ibs        0.         0.         0.       404.9103f -637.5411f -637.5398f
  ibd      404.9132f  404.9133f  404.9130f  404.9126f -637.9616f -637.9615f
  vgs     -502.3692m -502.3692m -508.7889m -607.4276m  583.5604m  583.6544m
  vds     -502.3692m -508.7889m -473.7461m -426.9772m  153.0991m  152.9041m
  vbs        0.         0.         0.       473.7461m -216.4396m -216.3456m
